/Pdrop (Plsr=1.00e+00) X,/Pdrop (Plsr=1.00e+00) Y,/Pdrop (Plsr=1.00e-01) X,/Pdrop (Plsr=1.00e-01) Y,/Pdrop (Plsr=1.00e-02) X,/Pdrop (Plsr=1.00e-02) Y,/Pdrop (Plsr=1.00e-03) X,/Pdrop (Plsr=1.00e-03) Y,/Pdrop (Plsr=1.00e-04) X,/Pdrop (Plsr=1.00e-04) Y,/Pdrop (Plsr=1.00e-08) X,/Pdrop (Plsr=1.00e-08) Y
1.307e-06,0.07553832573713852,1.307e-06,0.04019004148415858,1.307e-06,0.006494127836648803,1.307e-06,0.0006651227982034194,1.307e-06,6.655121687439012e-05,1.307e-06,6.655216470458899e-09
1.307006e-06,0.07560813569714707,1.307006e-06,0.04104955436069562,1.307006e-06,0.006904884852125471,1.307006e-06,0.0007101348373526604,1.307006e-06,7.106264268395866e-05,1.307006e-06,7.102992986164098e-09
1.307012e-06,0.0756683071495553,1.307012e-06,0.04180252103519981,1.307012e-06,0.007304485959014567,1.307012e-06,0.0007545904962230581,1.307012e-06,7.552009489802995e-05,1.307012e-06,7.549373266499364e-09
1.307018e-06,0.07571905548580431,1.307018e-06,0.04244550493393603,1.307018e-06,0.007679952966893347,1.307018e-06,0.0007970271813932659,1.307018e-06,7.977693209073294e-05,1.307018e-06,7.975885052504147e-09
1.307024e-06,0.0757605594913912,1.307024e-06,0.04297625020248826,1.307024e-06,0.00801704090884621,1.307024e-06,0.000835731728489736,1.307024e-06,8.366109009357725e-05,1.307024e-06,8.365274541694883e-09
1.30703e-06,0.07579296086986645,1.30703e-06,0.04339337723115842,1.30703e-06,0.00830126580087814,1.30703e-06,0.0008688512057429621,1.30703e-06,8.698614608365119e-05,1.30703e-06,8.698860057120222e-09
1.307036e-06,0.0758163673490883,1.307036e-06,0.04369611235027721,1.307036e-06,0.008519184460525809,1.307036e-06,0.0008945664789493107,1.307036e-06,8.956878628745899e-05,1.307036e-06,8.957151054018933e-09
1.307042e-06,0.07583085516807,1.307042e-06,0.04388406682914581,1.307042e-06,0.008659742509579573,1.307042e-06,0.0009113093236450941,1.307042e-06,9.125076635997745e-05,1.307042e-06,9.125367754981362e-09
1.307048e-06,0.07583647090730143,1.307048e-06,0.04395707345788472,1.307048e-06,0.008715473542538875,1.307048e-06,0.0009179829768474472,1.307048e-06,9.192130332467837e-05,1.307048e-06,9.192429156999623e-09
1.307054e-06,0.07583323263654289,1.307054e-06,0.04391508433412372,1.307054e-06,0.008683346615056641,1.307054e-06,0.0009141334154270774,1.307054e-06,9.153451041745435e-05,1.307054e-06,9.153745403750492e-09
1.307059999999999e-06,0.07582113036439128,1.307059999999999e-06,0.04375813106794982,1.307059999999999e-06,0.008565117617222982,1.307059999999999e-06,0.0009000241686226343,1.307059999999999e-06,9.01170233288834e-05,1.307059999999999e-06,9.011980753023927e-09
1.307065999999999e-06,0.07580012578368434,1.307065999999999e-06,0.0434863476547508,1.307065999999999e-06,0.0083671249970556,1.307065999999999e-06,0.0008765925957289458,1.307065999999999e-06,8.776354256344418e-05,1.307065999999999e-06,8.776607603881855e-09
1.307071999999999e-06,0.07577015131636179,1.307071999999999e-06,0.04310005586769902,1.307071999999999e-06,0.008099564451454759,1.307071999999999e-06,0.0008453006314466778,1.307071999999999e-06,8.46216328675633e-05,1.307071999999999e-06,8.462385767488555e-09
1.307077999999999e-06,0.07573110847109034,1.307077999999999e-06,0.04259991229870971,1.307077999999999e-06,0.007775366086117539,1.307077999999999e-06,0.0008079221573866012,1.307077999999999e-06,8.087011814717412e-05,1.307077999999999e-06,8.087201124193888e-09
1.307083999999999e-06,0.07568286553704145,1.307083999999999e-06,0.04198711424370563,1.307083999999999e-06,0.007408864883227168,1.307083999999999e-06,0.0007663202647388193,1.307083999999999e-06,7.669652685345683e-05,1.307083999999999e-06,7.667447719177387e-09
1.307089999999999e-06,0.07562525464811294,1.307089999999999e-06,0.04126365765180397,1.307089999999999e-06,0.007014482706904545,1.307089999999999e-06,0.0007222592187697723,1.307089999999999e-06,7.227813939082663e-05,1.307089999999999e-06,7.224893187232292e-09
1.307095999999999e-06,0.07555806826380686,1.307095999999999e-06,0.0404326337006608,1.307095999999999e-06,0.006605616160121598,1.307095999999999e-06,0.0006772758859595653,1.307095999999999e-06,6.776911251548272e-05,1.307095999999999e-06,6.773470693747661e-09
1.307101999999999e-06,0.07548105512646495,1.307101999999999e-06,0.03949854109045154,1.307101999999999e-06,0.006193856013333571,1.307101999999999e-06,0.0006326144562006921,1.307101999999999e-06,6.329401881530396e-05,1.307101999999999e-06,6.325647779357004e-09
1.307107999999999e-06,0.07539391576973613,1.307107999999999e-06,0.03846757969788309,1.307107999999999e-06,0.005788575586155752,1.307107999999999e-06,0.000589213787210722,1.307107999999999e-06,5.894668125802619e-05,1.307107999999999e-06,5.890781206874534e-09
1.307113999999999e-06,0.07529629767065105,1.307113999999999e-06,0.03734788009524335,1.307113999999999e-06,0.005396847827374486,1.307113999999999e-06,0.0005477305428160943,1.307113999999999e-06,5.479258215215917e-05,1.307113999999999e-06,5.475383037927957e-09
1.307119999999999e-06,0.07518779015760459,1.307119999999999e-06,0.03614961655075467,1.307119999999999e-06,0.005023604273466662,1.307119999999999e-06,0.0005085816224023865,1.307119999999999e-06,5.087317835270464e-05,1.307119999999999e-06,5.083560994084865e-09
1.307125999999999e-06,0.07506791920947527,1.307125999999999e-06,0.03488495345410154,1.307125999999999e-06,0.004671937035003092,1.307125999999999e-06,0.0004719930915132235,1.307125999999999e-06,4.721084066960367e-05,1.307125999999999e-06,4.717517716740562e-09
1.307131999999999e-06,0.07493614230690664,1.307131999999999e-06,0.03356779085422892,1.307131999999999e-06,0.004343458060804286,1.307131999999999e-06,0.0004380473588451226,1.307131999999999e-06,4.381359653458279e-05,1.307131999999999e-06,4.378027491335195e-09
1.307137999999999e-06,0.0747918435261732,1.307137999999999e-06,0.03221330470633951,1.307137999999999e-06,0.004038654629699049,1.307137999999999e-06,0.0004067242476683973,1.307137999999999e-06,4.067924738675102e-05,1.307137999999999e-06,4.064848531981113e-09
1.307143999999999e-06,0.07463432909796541,1.307143999999999e-06,0.03083731648853313,1.307143999999999e-06,0.00375720540478279,1.307143999999999e-06,0.0003779343710533092,1.307143999999999e-06,3.779870766272421e-05,1.307143999999999e-06,3.777056357051814e-09
1.307149999999999e-06,0.07446282368879822,1.307149999999999e-06,0.02945556443267062,1.307149999999999e-06,0.003498241576932239,1.307149999999999e-06,0.0003515448867182798,1.307149999999999e-06,3.515857727556867e-05,1.307149999999999e-06,3.513300044599758e-09
1.307155999999999e-06,0.07427646769909083,1.307155999999999e-06,0.02808297204936332,1.307155999999999e-06,0.003260551013219208,1.307155999999999e-06,0.0003273985454970021,1.307155999999999e-06,3.274304168826506e-05,1.307155999999999e-06,3.271991145176627e-09
1.307161999999999e-06,0.07407431590978135,1.307161999999999e-06,0.0267330101724995,1.307161999999999e-06,0.003042730752899707,1.307161999999999e-06,0.0003053272494877369,1.307161999999999e-06,3.053522269328735e-05,1.307161999999999e-06,3.051437754084692e-09
1.307167999999999e-06,0.07385533784452557,1.307167999999999e-06,0.02541722616050758,1.307167999999999e-06,0.002843296356727054,1.307167999999999e-06,0.0002851613350301974,1.307167999999999e-06,2.851810213671251e-05,1.307167999999999e-06,2.849936045301491e-09
1.307173999999999e-06,0.07361842024602711,1.307173999999999e-06,0.02414497664721128,1.307173999999999e-06,0.002660757171655364,1.307173999999999e-06,0.000266735650624512,1.307173999999999e-06,2.667512586664967e-05,1.307173999999999e-06,2.665830009254408e-09
1.307179999999999e-06,0.07336237208750382,1.307179999999999e-06,0.02292336101168017,1.307179999999999e-06,0.002493665770273404,1.307179999999999e-06,0.0002498933056617617,1.307179999999999e-06,2.499057552286839e-05,1.307179999999999e-06,2.497548139488136e-09
1.307185999999999e-06,0.07308593254930346,1.307185999999999e-06,0.02175732247715709,1.307185999999999e-06,0.002340648472782216,1.307185999999999e-06,0.000234487773063128,1.307185999999999e-06,2.344977639914416e-05,1.307185999999999e-06,2.343623862944404e-09
1.307191999999998e-06,0.0727877823804649,1.307191999999998e-06,0.02064986777548633,1.307191999999998e-06,0.002200422418381558,1.307191999999998e-06,0.0002203838603706409,1.307191999999998e-06,2.202702728887621e-05,1.307191999999998e-06,2.202704817913122e-09
1.307197999999998e-06,0.07246655902774743,1.307197999999998e-06,0.01960235405059143,1.307197999999998e-06,0.002071803346517357,1.307197999999998e-06,0.0002074579265214428,1.307197999999998e-06,2.073552931988157e-05,1.307197999999998e-06,2.073554713784976e-09
1.307203999999998e-06,0.072120875843979,1.307203999999998e-06,0.01861479892731851,1.307203999999998e-06,0.001953707161846336,1.307203999999998e-06,0.0001955976147441614,1.307203999999998e-06,1.956029693534865e-05,1.307203999999998e-06,1.955050444988659e-09
1.307209999999998e-06,0.07174934557586564,1.307209999999998e-06,0.0176861813813618,1.307209999999998e-06,0.001845147499448712,1.307209999999998e-06,0.0001847012915435355,1.307209999999998e-06,1.84705692801486e-05,1.307209999999998e-06,1.846176333441325e-09
1.307215999999998e-06,0.07135060817251261,1.307215999999998e-06,0.01681471317867775,1.307215999999998e-06,0.001745230854498987,1.307215999999998e-06,0.0001746773225340323,1.307215999999998e-06,1.746809609557549e-05,1.307215999999998e-06,1.746016787918825e-09
1.307221999999998e-06,0.07092336274752867,1.307221999999998e-06,0.01599807085641573,1.307221999999998e-06,0.001653150357560756,1.307221999999998e-06,0.0001654432731737341,1.307221999999998e-06,1.654462978353117e-05,1.307221999999998e-06,1.653748246514591e-09
1.307227999999998e-06,0.07046640326967665,1.307227999999998e-06,0.01523358561851061,1.307227999999998e-06,0.001568178926006338,1.307227999999998e-06,0.0001569250921061152,1.307227999999998e-06,1.56863027297137e-05,1.307227999999998e-06,1.568630968911239e-09
1.307233999999998e-06,0.06997865725763311,1.307233999999998e-06,0.01451839320961884,1.307233999999998e-06,0.001489662272100279,1.307233999999998e-06,0.0001490563136026961,1.307233999999998e-06,1.490000375782592e-05,1.307233999999998e-06,1.490001035915699e-09
1.307239999999998e-06,0.06945922642784853,1.307239999999998e-06,0.013849548350593,1.307239999999998e-06,0.001417012072761172,1.307239999999998e-06,0.0001417773009786014,1.307239999999998e-06,1.417262196194229e-05,1.307239999999998e-06,1.4172627697031e-09
1.307245999999998e-06,0.06890742791297867,1.307245999999998e-06,0.01322410931260396,1.307245999999998e-06,0.001349699484537828,1.307245999999998e-06,0.0001350345429310984,1.307245999999998e-06,1.349881189026082e-05,1.307245999999998e-06,1.349881690589994e-09
1.307251999999998e-06,0.06832283436525817,1.307251999999998e-06,0.01263919824888053,1.307251999999998e-06,0.001287249104904707,1.307251999999998e-06,0.0001287800081755579,1.307251999999998e-06,1.287377620028565e-05,1.307251999999998e-06,1.287378061485178e-09
1.307257999999998e-06,0.06770531101940648,1.307257999999998e-06,0.01209204241926307,1.307257999999998e-06,0.001229233425802228,1.307257999999998e-06,0.0001229705594735998,1.307257999999998e-06,1.229320638277078e-05,1.307257999999998e-06,1.229321029230921e-09
1.307263999999998e-06,0.06705504765521492,1.307263999999998e-06,0.01158000072761419,1.307263999999998e-06,0.001175267789532871,1.307263999999998e-06,0.0001175674254813077,1.307263999999998e-06,1.175322997624611e-05,1.307263999999998e-06,1.175323345909831e-09
1.307269999999998e-06,0.06637258340827702,1.307269999999998e-06,0.01110057922333429,1.307269999999998e-06,0.001125005834668592,1.307269999999998e-06,0.0001125357272733566,1.307269999999998e-06,1.12503632582411e-05,1.307269999999998e-06,1.125036637864232e-09
1.307275999999998e-06,0.06565882255327994,1.307275999999998e-06,0.01065143849187654,1.307275999999998e-06,0.001078135406109315,1.307275999999998e-06,0.000107844055542627,1.307275999999998e-06,1.078146900830702e-05,1.307275999999998e-06,1.07814718191968e-09
1.307281999999998e-06,0.06491503974258757,1.307281999999998e-06,0.01023039522446371,1.307281999999998e-06,0.001034374896258124,1.307281999999998e-06,0.0001034640941217759,1.307281999999998e-06,1.034371890394587e-05,1.307281999999998e-06,1.034372144917407e-09
1.307287999999998e-06,0.0641428737080999,1.307287999999998e-06,0.009835419724883094,1.307287999999998e-06,0.000993469980989611,1.307287999999998e-06,9.937028541251131e-05,1.307287999999998e-06,9.934560106120125e-06,1.307287999999998e-06,9.93456242218676e-10
1.307293999999998e-06,0.0633443090938051,1.307293999999998e-06,0.009464630680941513,1.307293999999998e-06,0.0009551907135142093,1.307293999999998e-06,9.553953344877605e-05,1.307293999999998e-06,9.551685605746357e-06,1.307293999999998e-06,9.551687723180186e-10
1.307299999999998e-06,0.06252164682175215,1.307299999999998e-06,0.009116288187992202,1.307299999999998e-06,0.0009193289403055256,1.307299999999998e-06,9.195094057269792e-05,1.307299999999998e-06,9.193007928329359e-06,1.307299999999998e-06,9.193009872785237e-10
1.307305999999998e-06,0.0616774641300902,1.307305999999998e-06,0.008788785747100845,1.307305999999998e-06,0.0008856960052045838,1.307305999999998e-06,8.85659842323398e-05,1.307305999999998e-06,8.85663582484457e-06,1.307305999999998e-06,8.856637617981039e-10
1.307311999999998e-06,0.06081456608389117,1.307311999999998e-06,0.0084806417587315,1.307311999999998e-06,0.00085412071038605,1.307311999999998e-06,8.54082022258649e-05,1.307311999999998e-06,8.540853610626158e-06,1.307311999999998e-06,8.540855270810311e-10
1.307317999999997e-06,0.05993593087202285,1.307317999999997e-06,0.008190490879348804,1.307317999999997e-06,0.0008244475055344242,1.307317999999997e-06,8.244073088572959e-05,1.307317999999997e-06,8.244102847192367e-06,1.307317999999997e-06,8.244104390068531e-10
1.307323999999997e-06,0.05904465152030868,1.307323999999997e-06,0.007917075494822004,1.307323999999997e-06,0.0007965348794072357,1.307323999999997e-06,7.964939483937214e-05,1.307323999999997e-06,7.964966094418828e-06,1.307323999999997e-06,7.964967533369371e-10
1.307329999999997e-06,0.05814387674047532,1.307329999999997e-06,0.00765923747937681,1.307329999999997e-06,0.0007702539305576127,1.307329999999997e-06,7.702128619382342e-05,1.307329999999997e-06,7.702152490208345e-06,1.307329999999997e-06,7.70215383672863e-10
1.307335999999997e-06,0.05723675350700289,1.307335999999997e-06,0.007415910347593956,1.307335999999997e-06,0.0007454870965490786,1.307335999999997e-06,7.454463463662782e-05,1.307335999999997e-06,7.454484942727308e-06,1.307335999999997e-06,7.454486206732021e-10
1.307341999999997e-06,0.05632637363493855,1.307341999999997e-06,0.007186111861865646,1.307341999999997e-06,0.0007221270232623839,1.307341999999997e-06,7.220869360441075e-05,1.307341999999997e-06,7.220888745035069e-06,1.307341999999997e-06,7.220889935109582e-10
1.307347999999997e-06,0.05541572617798328,1.307347999999997e-06,0.006968937126478781,1.307347999999997e-06,0.0007000755580566248,1.307347999999997e-06,7.000363899852101e-05,1.307347999999997e-06,7.000381444854533e-06,1.307347999999997e-06,7.0003825684619e-10
1.307353999999997e-06,0.05450765692992499,1.307353999999997e-06,0.006763552176460003,1.307353999999997e-06,0.0006792428523656483,1.307353999999997e-06,6.79204789715664e-05,1.307353999999997e-06,6.79206382177866e-06,1.307353999999997e-06,6.792064885430788e-10
1.307359999999997e-06,0.05360483576490987,1.307359999999997e-06,0.006569188054898343,1.307359999999997e-06,0.0006595465610896741,1.307359999999997e-06,6.595097349151626e-05,1.307359999999997e-06,6.595111842508936e-06,1.307359999999997e-06,6.595112851908643e-10
1.307365999999997e-06,0.05270973203319095,1.307365999999997e-06,0.006385135361649536,1.307365999999997e-06,0.0006409111275765088,1.307365999999997e-06,6.408756254293751e-05,1.307365999999997e-06,6.408769480026607e-06,1.307365999999997e-06,6.408770440186e-10
1.307371999999997e-06,0.05182459778869612,1.307371999999997e-06,0.006210739250574871,1.307371999999997e-06,0.0006232671443832369,1.307371999999997e-06,6.232330196664714e-05,1.307371999999997e-06,6.232342296781202e-06,1.307371999999997e-06,6.232343212120615e-10
1.307377999999997e-06,0.05095145827536481,1.307377999999997e-06,0.006045394848245239,1.307377999999997e-06,0.0006065507811323862,1.307377999999997e-06,6.065180605746769e-05,1.307377999999997e-06,6.065191703830377e-06,1.307377999999997e-06,6.06519257826141e-10
1.307383999999997e-06,0.05009210885816575,1.307383999999997e-06,0.005888543065699934,1.307383999999997e-06,0.0005907032718585608,1.307383999999997e-06,5.906719614866522e-05,1.307383999999997e-06,5.906729818761704e-06,1.307383999999997e-06,5.906730655757148e-10
1.307389999999997e-06,0.04924811744068413,1.307389999999997e-06,0.005739666774204914,1.307389999999997e-06,0.0005756704551346767,1.307389999999997e-06,5.756405450441225e-05,1.307389999999997e-06,5.75641485450882e-06,1.307389999999997e-06,5.756415657161717e-10
1.307395999999997e-06,0.04842083135477819,1.307395999999997e-06,0.005598287316327026,1.307395999999997e-06,0.0005614023610607446,1.307395999999997e-06,5.613738292276488e-05,1.307395999999997e-06,5.613746979293696e-06,1.307395999999997e-06,5.613747750367407e-10
1.307401999999997e-06,0.04761138772298529,1.307401999999997e-06,0.005463961324864612,1.307401999999997e-06,0.0005478528399200227,1.307401999999997e-06,5.478256552410896e-05,1.307401999999997e-06,5.478264595176454e-06,1.307401999999997e-06,5.478265337147249e-10
1.307407999999997e-06,0.0468207263591115,1.307407999999997e-06,0.005336277823433021,1.307407999999997e-06,0.0005349792279088906,1.307407999999997e-06,5.34953352623282e-05,1.307407999999997e-06,5.349540988927053e-06,1.307407999999997e-06,5.349541704020436e-10
1.307413999999997e-06,0.04604960437187047,1.307413999999997e-06,0.005214855584180601,1.307413999999997e-06,0.0005227420458934466,1.307413999999997e-06,5.227174375082193e-05,1.307413999999997e-06,5.227181314422576e-06,1.307413999999997e-06,5.22718200464437e-10
1.307419999999997e-06,0.04529861175400172,1.307419999999997e-06,0.005099340719868464,1.307419999999997e-06,0.0005111047276241107,1.307419999999997e-06,5.110813404386929e-05,1.307419999999997e-06,5.110819870612581e-06,1.307419999999997e-06,5.110820537775613e-10
1.307425999999997e-06,0.04456818736151728,1.307425999999997e-06,0.004989404489138114,1.307425999999997e-06,0.0005000333742406568,1.307425999999997e-06,5.000111605518341e-05,1.307425999999997e-06,5.000117643230992e-06,1.307425999999997e-06,5.000118288978082e-10
1.307431999999997e-06,0.04385863480912594,1.307431999999997e-06,0.004884741295722418,1.307431999999997e-06,0.0004894965322877654,1.307431999999997e-06,4.894754433340515e-05,1.307431999999997e-06,4.894760082224743e-06,1.307431999999997e-06,4.894760708048522e-10
1.307437999999997e-06,0.04317013791697748,1.307437999999997e-06,0.004785066863739993,1.307437999999997e-06,0.0004794649927559509,1.307437999999997e-06,4.794449794558045e-05,1.307437999999997e-06,4.79445508999964e-06,1.307437999999997e-06,4.794455697259734e-10
1.307443999999997e-06,0.04250277544352247,1.307443999999997e-06,0.004690116573023165,1.307443999999997e-06,0.0004699116089701851,1.307443999999997e-06,4.698926224909234e-05,1.307443999999997e-06,4.698931198527442e-06,1.307443999999997e-06,4.698931788465394e-10
1.307449999999996e-06,0.04185653492139956,1.307449999999996e-06,0.004599643939658892,1.307449999999996e-06,0.0004608111313735287,1.307449999999996e-06,4.60793123567103e-05,1.307449999999996e-06,4.607935915777744e-06,1.307449999999996e-06,4.607936489529984e-10
1.307455999999996e-06,0.04123132548314479,1.307455999999996e-06,0.004513419228391883,1.307455999999996e-06,0.0004521400574830898,1.307455999999996e-06,4.521229812136427e-05,1.307455999999996e-06,4.521234224133286e-06,1.307455999999996e-06,4.521234782742477e-10
1.307461999999996e-06,0.04062698961893752,1.307461999999996e-06,0.004431228184786666,1.307461999999996e-06,0.0004438764954878668,1.307461999999996e-06,4.438603048727673e-05,1.307461999999996e-06,4.438607215450244e-06,1.307461999999996e-06,4.4386077598752e-10
