/Pdrop (Plsr=0.1) X,/Pdrop (Plsr=0.1) Y,/Pdrop (Plsr=0.01) X,/Pdrop (Plsr=0.01) Y,/Pdrop (Plsr=0.001) X,/Pdrop (Plsr=0.001) Y
1.307e-06,0.04141560101719687,1.307e-06,0.007052542738045606,1.307e-06,0.0007264649867297418
1.307006e-06,0.04176677007983685,1.307006e-06,0.007241838893850651,1.307006e-06,0.0007473637227616303
1.307012e-06,0.04209502713148201,1.307012e-06,0.007425603134249507,1.307012e-06,0.0007679742165748335
1.307018e-06,0.04240011263773628,1.307018e-06,0.007604075355751436,1.307018e-06,0.0007881426171245932
1.307024e-06,0.04268180309762388,1.307024e-06,0.007775864106336136,1.307024e-06,0.0008077033984644495
1.30703e-06,0.04293991889393289,1.30703e-06,0.007939540824069646,1.30703e-06,0.0008264813194860372
1.307036e-06,0.04317431818202463,1.307036e-06,0.008093663207310935,1.307036e-06,0.0008442940665752629
1.307042e-06,0.04338489111944789,1.307042e-06,0.008236801114176366,1.307042e-06,0.0008609555412243941
1.307048e-06,0.04357155450817889,1.307048e-06,0.008367564253324605,1.307048e-06,0.0008762797444978559
1.307054e-06,0.04373424690409361,1.307054e-06,0.008484630792009519,1.307054e-06,0.0008900851619236742
1.307059999999999e-06,0.04387292423338982,1.307059999999999e-06,0.00858677591729259,1.307059999999999e-06,0.0009021995022841001
1.307065999999999e-06,0.0439875559436185,1.307065999999999e-06,0.008672899348677486,1.307065999999999e-06,0.0009124645969585049
1.307071999999999e-06,0.04407812170773116,1.307071999999999e-06,0.008742050816435129,1.307071999999999e-06,0.0009207412286718724
1.307077999999999e-06,0.04414460869244159,1.307077999999999e-06,0.008793452585411999,1.307077999999999e-06,0.0009269136353877528
1.307083999999999e-06,0.04418700939722636,1.307083999999999e-06,0.008826518211875332,1.307083999999999e-06,0.0009308934314243456
1.307089999999999e-06,0.04420532006706791,1.307089999999999e-06,0.008840866861529035,1.307089999999999e-06,0.0009326227065300566
1.307095999999999e-06,0.0441995396800695,1.307095999999999e-06,0.008836332680522301,1.307095999999999e-06,0.0009320761048541329
1.307101999999999e-06,0.0441696695101575,1.307101999999999e-06,0.008812968889789463,1.307101999999999e-06,0.0009292617467633016
1.307107999999999e-06,0.04411571326479707,1.307107999999999e-06,0.008771046459705827,1.307107999999999e-06,0.0009242209317155167
1.307113999999999e-06,0.04403767779756772,1.307113999999999e-06,0.008711047411765394,1.307113999999999e-06,0.000917026642211886
1.307119999999999e-06,0.04393557439538923,1.307119999999999e-06,0.00863365298274296,1.307119999999999e-06,0.0009077809485323746
1.307125999999999e-06,0.04380942063955504,1.307125999999999e-06,0.008539727069956073,1.307125999999999e-06,0.0008966114831337145
1.307131999999999e-06,0.04365924283842569,1.307131999999999e-06,0.008430295548284387,1.307131999999999e-06,0.0008836672055008672
1.307137999999999e-06,0.04348507902710488,1.307137999999999e-06,0.008306522202879772,1.307137999999999e-06,0.0008691137086329403
1.307143999999999e-06,0.04328698252531672,1.307143999999999e-06,0.008169682146945094,1.307143999999999e-06,0.0008531283259349863
1.307149999999999e-06,0.04306502603893485,1.307149999999999e-06,0.008021133682099404,1.307149999999999e-06,0.0008358952836894125
1.307155999999999e-06,0.04281930628230373,1.307155999999999e-06,0.007862289600617162,1.307155999999999e-06,0.0008176011133369553
1.307161999999999e-06,0.04254994908823975,1.307161999999999e-06,0.007694588918977472,1.307161999999999e-06,0.0007984304949087389
1.307167999999999e-06,0.04225711495889962,1.307167999999999e-06,0.007519469968262524,1.307167999999999e-06,0.0007785626538328185
1.307173999999999e-06,0.04194100499508305,1.307173999999999e-06,0.00733834565379456,1.307173999999999e-06,0.0007581683835781403
1.307179999999999e-06,0.0416018671223822,1.307179999999999e-06,0.007152581541747005,1.307179999999999e-06,0.0007374077205407763
1.307185999999999e-06,0.04124000251157272,1.307185999999999e-06,0.006963477248254632,1.307185999999999e-06,0.0007164282584763535
1.307191999999998e-06,0.04085577206701616,1.307191999999998e-06,0.006772251411464589,1.307191999999998e-06,0.000695364059301972
1.307197999999998e-06,0.04044960283276793,1.307197999999998e-06,0.006580030335554207,1.307197999999998e-06,0.0006743350958104267
1.307203999999998e-06,0.04002199414125038,1.307203999999998e-06,0.006387840221241826,1.307203999999998e-06,0.0006534471491718432
1.307209999999998e-06,0.0395735233067017,1.307209999999998e-06,0.006196602751324447,1.307209999999998e-06,0.0006327920789692919
1.307215999999998e-06,0.03910485064605217,1.307215999999998e-06,0.00600713368843279,1.307215999999998e-06,0.0006124483843494029
1.307221999999998e-06,0.0386167235957287,1.307221999999998e-06,0.005820144068057922,1.307221999999998e-06,0.0005924819800722971
1.307227999999998e-06,0.03810997968756461,1.307227999999998e-06,0.005636243532023595,1.307227999999998e-06,0.0005729471193448157
1.307233999999998e-06,0.03758554815051184,1.307233999999998e-06,0.005455945340754275,1.307233999999998e-06,0.0005538874049087013
1.307239999999998e-06,0.03704444992235439,1.307239999999998e-06,0.005279672622116695,1.307239999999998e-06,0.0005353368400265933
1.307245999999998e-06,0.03648779588570949,1.307245999999998e-06,0.005107765452287394,1.307245999999998e-06,0.0005173208808704057
1.307251999999998e-06,0.03591678318810382,1.307251999999998e-06,0.004940488414167367,1.307251999999998e-06,0.0004998574609474155
1.307257999999998e-06,0.03533268956502829,1.307257999999998e-06,0.004778038334838513,1.307257999999998e-06,0.0004829579662433003
1.307263999999998e-06,0.03473686565649592,1.307263999999998e-06,0.004620551960812837,1.307263999999998e-06,0.0004666281466109252
1.307269999999998e-06,0.03413072538833851,1.307269999999998e-06,0.004468113384622787,1.307269999999998e-06,0.0004508689545661615
1.307275999999998e-06,0.03351573457453636,1.307275999999998e-06,0.00432076108612179,1.307275999999998e-06,0.0004356773071293395
1.307281999999998e-06,0.03289339798090377,1.307281999999998e-06,0.004178494495339894,1.307281999999998e-06,0.0004210467697958455
1.307287999999998e-06,0.03226524516752141,1.307287999999998e-06,0.004041280020311115,1.307287999999998e-06,0.000406968164274835
1.307293999999998e-06,0.0316328154902034,1.307293999999998e-06,0.00390905651272219,1.307293999999998e-06,0.0003934301034203384
1.307299999999998e-06,0.03099764268722687,1.307299999999998e-06,0.003781740167552008,1.307299999999998e-06,0.0003804194579936783
1.307305999999998e-06,0.03036123949862886,1.307305999999998e-06,0.003659228869878731,1.307305999999998e-06,0.0003679217605754937
1.307311999999998e-06,0.02972508276471823,1.307311999999998e-06,0.003541406014679056,1.307311999999998e-06,0.0003559215523171804
1.307317999999997e-06,0.02909059942284631,1.307317999999997e-06,0.00342814383342191,1.307317999999997e-06,0.0003444026782610757
1.307323999999997e-06,0.02845915377374278,1.307323999999997e-06,0.00331930626633293,1.307323999999997e-06,0.0003333485368417145
1.307329999999997e-06,0.02783203632257629,1.307329999999997e-06,0.003214751421574858,1.307329999999997e-06,0.0003227422889146424
1.307335999999997e-06,0.02721045442058491,1.307335999999997e-06,0.003114333662894858,1.307335999999997e-06,0.0003125670312941672
1.307341999999997e-06,0.02659552484933083,1.307341999999997e-06,0.003017905366493622,1.307341999999997e-06,0.0003028059393977412
1.307347999999997e-06,0.02598826840389037,1.307347999999997e-06,0.002925318385780017,1.307347999999997e-06,0.0002934423831563215
1.307353999999997e-06,0.02538960645299322,1.307353999999997e-06,0.002836425260293619,1.307353999999997e-06,0.0002844600199441359
1.307359999999997e-06,0.02480035938352158,1.307359999999997e-06,0.002751080201993099,1.307359999999997e-06,0.0002758428678528348
1.307365999999997e-06,0.02422124678128421,1.307365999999997e-06,0.002669139889217291,1.307365999999997e-06,0.0002675753622638634
1.307371999999997e-06,0.02365288915707383,1.307371999999997e-06,0.002590464095430689,1.307371999999997e-06,0.0002596423982995599
1.307377999999997e-06,0.02309581100035625,1.307377999999997e-06,0.002514916176988785,1.307377999999997e-06,0.0002520293614136771
1.307383999999997e-06,0.0225504449288299,1.307383999999997e-06,0.00244236344124914,1.307383999999997e-06,0.0002447221480743406
1.307389999999997e-06,0.02201713670138596,1.307389999999997e-06,0.002372677413816557,1.307389999999997e-06,0.0002377071782333124
1.307395999999997e-06,0.02149615087018432,1.307395999999997e-06,0.002305734021240945,1.307395999999997e-06,0.0002309714010306487
1.307401999999997e-06,0.0209876768642491,1.307401999999997e-06,0.002241413703368836,1.307401999999997e-06,0.0002245022949795102
1.307407999999997e-06,0.02049183531842593,1.307407999999997e-06,0.002179601467591329,1.307407999999997e-06,0.0002182878636906501
1.307413999999997e-06,0.02000868448573612,1.307413999999997e-06,0.002120186895453812,1.307413999999997e-06,0.0002123166280307118
1.307419999999997e-06,0.0195382265978694,1.307419999999997e-06,0.002063064110680848,1.307419999999997e-06,0.0002064965441411034
1.307425999999997e-06,0.01908041406281722,1.307425999999997e-06,0.002008131716172011,1.307425999999997e-06,0.000201060347360874
1.307431999999997e-06,0.01863515541435126,1.307431999999997e-06,0.00195529270654552,1.307431999999997e-06,0.000195754824205067
1.307437999999997e-06,0.01820232094857038,1.307437999999997e-06,0.001904454361603492,1.307437999999997e-06,0.0001906515105109473
1.307443999999997e-06,0.01778174800368017,1.307443999999997e-06,0.001855528125390159,1.307443999999997e-06,0.0001857413179229503
1.307449999999996e-06,0.01737324585480168,1.307449999999996e-06,0.001808429474625055,1.307449999999996e-06,0.0001810155884703874
1.307455999999996e-06,0.01697660021028852,1.307455999999996e-06,0.00176307777972908,1.307455999999996e-06,0.0001764660773177843
1.307461999999996e-06,0.01659157730715488,1.307461999999996e-06,0.001719396161080106,1.307461999999996e-06,0.0001720849354951905
1.307467999999996e-06,0.01621792761218952,1.307467999999996e-06,0.001677311342667486,1.307467999999996e-06,0.000167864692733862
1.307473999999996e-06,0.01585538914202418,1.307473999999996e-06,0.001636753504903805,1.307473999999996e-06,0.0001637982405362693
1.307479999999996e-06,0.01550369042061748,1.307479999999996e-06,0.001597656138042598,1.307479999999996e-06,0.0001598788155843677
1.307485999999996e-06,0.01516255309561041,1.307485999999996e-06,0.001559955897322776,1.307485999999996e-06,0.0001560999835625063
1.307491999999996e-06,0.01483169423751068,1.307491999999996e-06,0.001523592460767549,1.307491999999996e-06,0.0001524106549127875
1.307497999999996e-06,0.01451082834634677,1.307497999999996e-06,0.001488508390323731,1.307497999999996e-06,0.0001488974073924539
1.307503999999996e-06,0.0141996690907754,1.307503999999996e-06,0.001454648996871999,1.307503999999996e-06,0.0001455067364367884
1.307509999999996e-06,0.01389793080446088,1.307509999999996e-06,0.001421962209522847,1.307509999999996e-06,0.0001422338057920182
1.307515999999996e-06,0.01360532976325574,1.307515999999996e-06,0.001390398449448353,1.307515999999996e-06,0.0001390736051086576
1.307521999999996e-06,0.01332158526599979,1.307521999999996e-06,0.001359910508453781,1.307521999999996e-06,0.0001360213688041
1.307527999999996e-06,0.0130464205399923,1.307527999999996e-06,0.001330453432372601,1.307527999999996e-06,0.0001330725616397813
1.307533999999996e-06,0.01277956349110062,1.307533999999996e-06,0.001301984409348826,1.307533999999996e-06,0.0001302228669819708
1.307539999999996e-06,0.01252074731643187,1.307539999999996e-06,0.001274462662967366,1.307539999999996e-06,0.0001274681756083541
1.307545999999996e-06,0.01226971099642535,1.307545999999996e-06,0.001247849350204587,1.307545999999996e-06,0.0001248045750582684
1.307551999999996e-06,0.01202619968130482,1.307551999999996e-06,0.001222107464096896,1.307551999999996e-06,0.0001222283395081984
1.307557999999996e-06,0.01178996498561256,1.307557999999996e-06,0.001197201741026533,1.307557999999996e-06,0.0001197359201560616
1.307563999999996e-06,0.01156076520302659,1.307563999999996e-06,0.001173098572490416,1.307563999999996e-06,0.000117349906297554
1.307569999999996e-06,0.01133836545245632,1.307569999999996e-06,0.00114976592121343,1.307569999999996e-06,0.0001150140494492619
1.307575999999996e-06,0.01112253776510594,1.307575999999996e-06,0.001127173241446564,1.307575999999996e-06,0.0001127283393946202
1.307581999999995e-06,0.01091306112124465,1.307581999999995e-06,0.0011052914032998,1.307581999999995e-06,0.0001105391273030665
1.307587999999995e-06,0.01070972144419182,1.307587999999995e-06,0.001084092620932382,1.307587999999995e-06,0.0001084181386725004
1.307593999999995e-06,0.01051231155839333,1.307593999999995e-06,0.001063550384450875,1.307593999999995e-06,0.0001063629125480812
1.307599999999995e-06,0.01032063111738769,1.307599999999995e-06,0.001043639395339142,1.307599999999995e-06,0.0001043709077506293
1.307605999999995e-06,0.0101344865068475,1.307605999999995e-06,0.00102433550525924,1.307605999999995e-06,0.0001024397001167231
1.307611999999995e-06,0.0099536907272694,1.307611999999995e-06,0.001005615658070107,1.307611999999995e-06,0.0001005669756400131
1.307617999999995e-06,0.009778063260120758,1.307617999999995e-06,0.000987457834896389,1.307617999999995e-06,9.875052488270788e-05
1.307623999999995e-06,0.009607429920926452,1.307623999999995e-06,0.0009698410021047255,1.307623999999995e-06,9.698823768381375e-05
1.307629999999995e-06,0.009441622702195618,1.307629999999995e-06,0.0009527450620371755,1.307629999999995e-06,9.527809815378747e-05
1.307635999999995e-06,0.009280479608687506,1.307635999999995e-06,0.0009361508063576484,1.307635999999995e-06,9.361817993845235e-05
1.307641999999995e-06,0.009123844487240997,1.307641999999995e-06,0.0009200398718814376,1.307641999999995e-06,9.200664173967163e-05
1.307647999999995e-06,0.008971566852945798,1.307647999999995e-06,0.0009043946987501766,1.307647999999995e-06,9.044172307699521e-05
1.307653999999995e-06,0.008823501713238957,1.307653999999995e-06,0.0008891984908287632,1.307653999999995e-06,8.89217402778487e-05
1.307659999999995e-06,0.008679509391353455,1.307659999999995e-06,0.0008744351782152123,1.307659999999995e-06,8.744508268380402e-05
1.307665999999995e-06,0.008539455350059285,1.307665999999995e-06,0.0008600893817317928,1.307665999999995e-06,8.601020906054815e-05
1.307671999999995e-06,0.008403210016773546,1.307671999999995e-06,0.0008461463793042096,1.307671999999995e-06,8.46156442003019e-05
1.307677999999995e-06,0.008270648610756052,1.307677999999995e-06,0.0008325920741204056,1.307677999999995e-06,8.325997570602838e-05
1.307683999999995e-06,0.008141650973019689,1.307683999999995e-06,0.0008194129644710671,1.307683999999995e-06,8.194185094732296e-05
1.307689999999995e-06,0.008016101399494114,1.307689999999995e-06,0.0008065961151819662,1.307689999999995e-06,8.065997417823682e-05
1.307695999999995e-06,0.007893888477830758,1.307695999999995e-06,0.0007941291305482866,1.307695999999995e-06,7.941310380813213e-05
1.307701999999995e-06,0.007774904928181463,1.307701999999995e-06,0.0007820001286891745,1.307701999999995e-06,7.820004981664232e-05
1.307707999999994e-06,0.007659047448186828,1.307707999999994e-06,0.000770197717243181,1.307707999999994e-06,7.701967130519884e-05
1.307713999999994e-06,0.00754621656237411,1.307713999999994e-06,0.0007587109703325004,1.307713999999994e-06,7.587087417681102e-05
1.307719999999994e-06,0.007436316476066265,1.307719999999994e-06,0.0007475294067236422,1.307719999999994e-06,7.475260893770349e-05
1.307725999999994e-06,0.007329254933898142,1.307725999999994e-06,0.0007366429691202634,1.307725999999994e-06,7.366386861299679e-05
1.307731999999994e-06,0.007224943082965985,1.307731999999994e-06,0.0007260420045245719,1.307731999999994e-06,7.260368677127523e-05
1.307737999999994e-06,0.007123295340609154,1.307737999999994e-06,0.0007157172456077838,1.307737999999994e-06,7.157113565074564e-05
1.307743999999994e-06,0.007024229266822212,1.307743999999994e-06,0.0007056597930362667,1.307743999999994e-06,7.056532438227133e-05
1.307749999999994e-06,0.006927665441242544,1.307749999999994e-06,0.0006957810522625907,1.307749999999994e-06,6.95853973033497e-05
1.307755999999994e-06,0.00683352734461325,1.307755999999994e-06,0.000686236063734127,1.307755999999994e-06,6.863053235829983e-05
1.307761999999994e-06,0.006741741244698072,1.307761999999994e-06,0.0006769330993176598,1.307761999999994e-06,6.769993957969194e-05
1.307767999999994e-06,0.006652236086523432,1.307767999999994e-06,0.0006678651023696403,1.307767999999994e-06,6.679285964664306e-05
1.307773999999994e-06,0.006564943386820837,1.307773999999994e-06,0.0006590247809237028,1.307773999999994e-06,6.590856251587674e-05
1.307779999999994e-06,0.006479797132618091,1.307779999999994e-06,0.0006504051240173548,1.307779999999994e-06,6.504634612111541e-05
1.307785999999994e-06,0.006396733683803775,1.307785999999994e-06,0.0006419993874016887,1.307785999999994e-06,6.42055351378903e-05
1.307791999999994e-06,0.006315691679572852,1.307791999999994e-06,0.0006338010818594708,1.307791999999994e-06,6.338547980905e-05
1.307797999999994e-06,0.006236611948637151,1.307797999999994e-06,0.0006258039620980852,1.307797999999994e-06,6.258555482899398e-05
1.307803999999994e-06,0.006159437423064242,1.307803999999994e-06,0.0006180020161828598,1.307803999999994e-06,6.180515828237701e-05
1.307809999999994e-06,0.006084113055597,1.307809999999994e-06,0.0006103894554874464,1.307809999999994e-06,6.104371063491425e-05
1.307815999999994e-06,0.006010585740386471,1.307815999999994e-06,0.0006029607051319683,1.307815999999994e-06,6.030065377332216e-05
1.307821999999994e-06,0.005938804236960043,1.307821999999994e-06,0.0005957103948847483,1.307821999999994e-06,5.957545009194394e-05
1.307827999999994e-06,0.005868719097327578,1.307827999999994e-06,0.0005886333504990016,1.307827999999994e-06,5.886758162316768e-05
1.307833999999994e-06,0.005800282596098583,1.307833999999994e-06,0.0005817245854673042,1.307833999999994e-06,5.817654920989178e-05
1.307839999999993e-06,0.005733448663515184,1.307839999999993e-06,0.0005749792931664761,1.307839999999993e-06,5.750187171727765e-05
1.307845999999993e-06,0.005668172821240915,1.307845999999993e-06,0.0005683928393766569,1.307845999999993e-06,5.684308528214546e-05
1.307851999999993e-06,0.00560441212083678,1.307851999999993e-06,0.00056196075515208,1.307851999999993e-06,5.619974259774331e-05
1.307857999999993e-06,0.005542125084799635,1.307857999999993e-06,0.0005556787300265689,1.307857999999993e-06,5.557141223217502e-05
1.307863999999993e-06,0.005481271650055295,1.307863999999993e-06,0.0005495426055380604,1.307863999999993e-06,5.495767797890049e-05
1.307869999999993e-06,0.005421813113802037,1.307869999999993e-06,0.0005435483690513039,1.307869999999993e-06,5.435813823720849e-05
1.307875999999993e-06,0.005363712081625745,1.307875999999993e-06,0.0005376921478688342,1.307875999999993e-06,5.37724054216591e-05
1.307881999999993e-06,0.005306932417765156,1.307881999999993e-06,0.0005319702036113454,1.307881999999993e-06,5.32001053985952e-05
1.307887999999993e-06,0.005251439197455019,1.307887999999993e-06,0.0005263789268567294,1.307887999999993e-06,5.264087694864017e-05
1.307893999999993e-06,0.00519719866124794,1.307893999999993e-06,0.0005209148320215882,1.307893999999993e-06,5.209437125355055e-05
1.307899999999993e-06,0.005144178171245234,1.307899999999993e-06,0.0005155745524767848,1.307899999999993e-06,5.156025140657296e-05
1.307905999999993e-06,0.005092346169133223,1.307905999999993e-06,0.0005103548358816457,1.307905999999993e-06,5.1038191944757e-05
1.307911999999993e-06,0.005041672135963713,1.307911999999993e-06,0.0005052525397290736,1.307911999999993e-06,5.052787840244334e-05
1.307917999999993e-06,0.004992126553606817,1.307917999999993e-06,0.0005002646270885687,1.307917999999993e-06,5.002900688461935e-05
1.307923999999993e-06,0.00494368086777964,1.307923999999993e-06,0.0004953881625386685,1.307923999999993e-06,4.954128365928705e-05
